TFA50 000:003.280   SEGGER J-Link V7.98c Log File
TFA50 000:003.406   DLL Compiled: Aug  7 2024 15:37:06
TFA50 000:003.410   Logging started @ 2025-01-08 20:20
TFA50 000:003.414   Process: C:\Users\miked\AppData\Local\Keil_v5\UV4\UV4.exe
TFA50 000:003.418 - 3.416ms
TFA50 000:003.425 JLINK_SetWarnOutHandler(...)
TFA50 000:003.428 - 0.004ms
TFA50 000:003.433 JLINK_OpenEx(...)
TFA50 000:005.539   Firmware: J-Link V10 compiled Jan 30 2023 11:28:07
TFA50 000:007.267   Firmware: J-Link V10 compiled Jan 30 2023 11:28:07
TFA50 000:007.398   Decompressing FW timestamp took 110 us
TFA50 000:010.323   Hardware: V10.10
TFA50 000:010.333   S/N: 820102583
TFA50 000:010.337   OEM: SEGGER
TFA50 000:010.341   Feature(s): GDB
TFA50 000:012.548   Bootloader: (Could not read)
TFA50 000:014.029   TELNET listener socket opened on port 19021
TFA50 000:014.094   WEBSRV WEBSRV_Init(): Starting webserver thread(s)
TFA50 000:014.203   WEBSRV Webserver running on local port 19080
TFA50 000:014.260   Looking for J-Link GUI Server exe at: C:\Users\miked\AppData\Local\Keil_v5\ARM\Segger\JLinkGUIServer.exe
TFA50 000:014.314   Looking for J-Link GUI Server exe at: C:\Program Files\SEGGER\JLink_V810l\JLinkGUIServer.exe
TFA50 000:014.331   Forking J-Link GUI Server: C:\Program Files\SEGGER\JLink_V810l\JLinkGUIServer.exe
TFA50 000:027.547   J-Link GUI Server info: "J-Link GUI server V8.10l "
TFA50 000:032.043 - 28.605ms returns "O.K."
TFA50 000:032.060 JLINK_GetEmuCaps()
TFA50 000:032.065 - 0.004ms returns 0xB9FF7BBF
TFA50 000:032.073 JLINK_TIF_GetAvailable(...)
TFA50 000:032.680 - 0.607ms
TFA50 000:032.690 JLINK_SetErrorOutHandler(...)
TFA50 000:032.694 - 0.003ms
TFA50 000:032.707 JLINK_ExecCommand("ProjectFile = "F:\GHLabs\repos\NAATOS-V2-py32\PY32_devkit\JLinkSettings.ini"", ...). 
TFA50 000:046.392   Device "CORTEX-M0+" selected.
TFA50 000:046.608 - 13.901ms returns 0x00
TFA50 000:048.199 JLINK_ExecCommand("Device = PY32F003x8", ...). 
TFA50 000:049.584   Device "CORTEX-M0+" selected.
TFA50 000:049.829 - 1.617ms returns 0x00
TFA50 000:049.838 JLINK_ExecCommand("DisableConnectionTimeout", ...). 
TFA50 000:049.844   ERROR: Unknown command
TFA50 000:049.849 - 0.006ms returns 0x01
TFA50 000:049.854 JLINK_GetHardwareVersion()
TFA50 000:049.859 - 0.003ms returns 101000
TFA50 000:049.863 JLINK_GetDLLVersion()
TFA50 000:049.866 - 0.003ms returns 79803
TFA50 000:049.870 JLINK_GetOEMString(...)
TFA50 000:049.874 JLINK_GetFirmwareString(...)
TFA50 000:049.877 - 0.003ms
TFA50 000:055.387 JLINK_GetDLLVersion()
TFA50 000:055.398 - 0.010ms returns 79803
TFA50 000:055.402 JLINK_GetCompileDateTime()
TFA50 000:055.405 - 0.003ms
TFA50 000:056.587 JLINK_GetFirmwareString(...)
TFA50 000:056.596 - 0.009ms
TFA50 000:057.929 JLINK_GetHardwareVersion()
TFA50 000:057.938 - 0.009ms returns 101000
TFA50 000:059.186 JLINK_GetSN()
TFA50 000:059.195 - 0.009ms returns 820102583
TFA50 000:060.398 JLINK_GetOEMString(...)
TFA50 000:062.944 JLINK_TIF_Select(JLINKARM_TIF_SWD)
TFA50 000:064.824 - 1.880ms returns 0x00
TFA50 000:064.835 JLINK_HasError()
TFA50 000:064.843 JLINK_SetSpeed(3000)
TFA50 000:065.234 - 0.392ms
TFA50 000:065.240 JLINK_GetId()
TFA50 000:067.962   Found SW-DP with ID 0x0BC11477
TFA50 000:073.353   DPIDR: 0x0BC11477
TFA50 000:074.486   CoreSight SoC-400 or earlier
TFA50 000:075.719   Scanning AP map to find all available APs
TFA50 000:077.837   AP[1]: Stopped AP scan as end of AP map has been reached
TFA50 000:079.013   AP[0]: AHB-AP (IDR: 0x04770031)
TFA50 000:080.458   Iterating through AP map to find AHB-AP to use
TFA50 000:082.738   AP[0]: Core found
TFA50 000:083.935   AP[0]: AHB-AP ROM base: 0xE00FF000
TFA50 000:085.666   CPUID register: 0x410CC601. Implementer code: 0x41 (ARM)
TFA50 000:086.981   Found Cortex-M0 r0p1, Little endian.
TFA50 000:088.041   -- Max. mem block: 0x00004598
TFA50 000:088.839   CPU_ReadMem(4 bytes @ 0xE000EDF0)
TFA50 000:089.478   CPU_WriteMem(4 bytes @ 0xE000EDF0)
TFA50 000:089.958   CPU_ReadMem(4 bytes @ 0xE0002000)
TFA50 000:091.667   FPUnit: 4 code (BP) slots and 0 literal slots
TFA50 000:091.715   CPU_ReadMem(4 bytes @ 0xE000EDFC)
TFA50 000:092.300   CPU_WriteMem(4 bytes @ 0xE000EDFC)
TFA50 000:092.876   CPU_ReadMem(4 bytes @ 0xE0001000)
TFA50 000:093.504   CPU_WriteMem(4 bytes @ 0xE0001000)
TFA50 000:095.253   CoreSight components:
TFA50 000:096.440   ROMTbl[0] @ E00FF000
TFA50 000:096.452   CPU_ReadMem(64 bytes @ 0xE00FF000)
TFA50 000:097.419   CPU_ReadMem(32 bytes @ 0xE000EFE0)
TFA50 000:099.333   [0][0]: E000E000 CID B105E00D PID 000BB008 SCS
TFA50 000:099.346   CPU_ReadMem(32 bytes @ 0xE0001FE0)
TFA50 000:101.578   [0][1]: E0001000 CID B105E00D PID 000BB00A DWT
TFA50 000:101.591   CPU_ReadMem(32 bytes @ 0xE0002FE0)
TFA50 000:103.510   [0][2]: E0002000 CID B105E00D PID 000BB00B FPB
TFA50 000:104.006 - 38.765ms returns 0x0BC11477
TFA50 000:104.043 JLINK_GetDLLVersion()
TFA50 000:104.047 - 0.003ms returns 79803
TFA50 000:104.053 JLINK_CORE_GetFound()
TFA50 000:104.056 - 0.003ms returns 0x60000FF
TFA50 000:104.060 JLINK_GetDebugInfo(0x100 = JLINKARM_ROM_TABLE_ADDR_INDEX)
TFA50 000:104.064   Value=0xE00FF000
TFA50 000:104.068 - 0.008ms returns 0
TFA50 000:105.391 JLINK_GetDebugInfo(0x100 = JLINKARM_ROM_TABLE_ADDR_INDEX)
TFA50 000:105.400   Value=0xE00FF000
TFA50 000:105.404 - 0.013ms returns 0
TFA50 000:105.408 JLINK_GetDebugInfo(0x101 = JLINKARM_DEBUG_INFO_ETM_ADDR_INDEX)
TFA50 000:105.412   Value=0x00000000
TFA50 000:105.416 - 0.007ms returns 0
TFA50 000:105.420 JLINK_ReadMemEx(0xE0041FF0, 0x10 Bytes, Flags = 0x02000004)
TFA50 000:105.446   CPU_ReadMem(16 bytes @ 0xE0041FF0)
TFA50 000:106.114   Data:  00 00 00 00 00 00 00 00 00 00 00 00 00 00 00 00
TFA50 000:106.120 - 0.699ms returns 16 (0x10)
TFA50 000:106.125 JLINK_GetDebugInfo(0x102 = JLINKARM_DEBUG_INFO_MTB_ADDR_INDEX)
TFA50 000:106.128   Value=0x00000000
TFA50 000:106.132 - 0.007ms returns 0
TFA50 000:106.135 JLINK_GetDebugInfo(0x103 = JLINKARM_DEBUG_INFO_TPIU_ADDR_INDEX)
TFA50 000:106.138   Value=0x00000000
TFA50 000:106.142 - 0.007ms returns 0
TFA50 000:106.146 JLINK_GetDebugInfo(0x104 = JLINKARM_DEBUG_INFO_ITM_ADDR_INDEX)
TFA50 000:106.149   Value=0xE0000000
TFA50 000:106.153 - 0.007ms returns 0
TFA50 000:106.156 JLINK_GetDebugInfo(0x105 = JLINKARM_DEBUG_INFO_DWT_ADDR_INDEX)
TFA50 000:106.159   Value=0xE0001000
TFA50 000:106.163 - 0.007ms returns 0
TFA50 000:106.167 JLINK_GetDebugInfo(0x106 = JLINKARM_DEBUG_INFO_FPB_ADDR_INDEX)
TFA50 000:106.170   Value=0xE0002000
TFA50 000:106.174 - 0.007ms returns 0
TFA50 000:106.177 JLINK_GetDebugInfo(0x107 = JLINKARM_DEBUG_INFO_NVIC_ADDR_INDEX)
TFA50 000:106.180   Value=0xE000E000
TFA50 000:106.184 - 0.007ms returns 0
TFA50 000:106.188 JLINK_GetDebugInfo(0x10C = JLINKARM_DEBUG_INFO_DBG_ADDR_INDEX)
TFA50 000:106.190   Value=0xE000EDF0
TFA50 000:106.194 - 0.007ms returns 0
TFA50 000:106.198 JLINK_GetDebugInfo(0x01 = Unknown)
TFA50 000:106.201   Value=0x00000000
TFA50 000:106.205 - 0.007ms returns 0
TFA50 000:106.208 JLINK_ReadMemU32(0xE000ED00, 0x1 Items)
TFA50 000:106.213   CPU_ReadMem(4 bytes @ 0xE000ED00)
TFA50 000:106.832   Data:  01 C6 0C 41
TFA50 000:106.841   Debug reg: CPUID
TFA50 000:106.845 - 0.636ms returns 1 (0x1)
TFA50 000:106.851 JLINK_GetDebugInfo(0x10F = JLINKARM_DEBUG_INFO_HAS_CORTEX_M_SECURITY_EXT_INDEX)
TFA50 000:106.854   Value=0x00000000
TFA50 000:106.858 - 0.007ms returns 0
TFA50 000:106.862 JLINK_HasError()
TFA50 000:106.866 JLINK_SetResetType(JLINKARM_CM3_RESET_TYPE_NORMAL)
TFA50 000:106.869 - 0.003ms returns JLINKARM_CM3_RESET_TYPE_NORMAL
TFA50 000:106.873 JLINK_Reset()
TFA50 000:106.882   CPU is running
TFA50 000:106.887   CPU_WriteMem(4 bytes @ 0xE000EDF0)
TFA50 000:107.524   CPU is running
TFA50 000:107.529   CPU_WriteMem(4 bytes @ 0xE000EDFC)
TFA50 000:109.383   Reset: Halt core after reset via DEMCR.VC_CORERESET.
TFA50 000:111.514   Reset: Reset device via AIRCR.SYSRESETREQ.
TFA50 000:111.525   CPU is running
TFA50 000:111.531   CPU_WriteMem(4 bytes @ 0xE000ED0C)
TFA50 000:167.694   CPU_ReadMem(4 bytes @ 0xE000EDF0)
TFA50 000:168.630   CPU_ReadMem(4 bytes @ 0xE000EDF0)
TFA50 000:172.979   CPU_WriteMem(4 bytes @ 0xE000EDFC)
TFA50 000:180.099   CPU_ReadMem(4 bytes @ 0xE000EDF0)
TFA50 000:184.028   CPU_WriteMem(4 bytes @ 0xE0002000)
TFA50 000:184.579   CPU_ReadMem(4 bytes @ 0xE000EDFC)
TFA50 000:185.081   CPU_ReadMem(4 bytes @ 0xE0001000)
TFA50 000:185.579   CPU_WriteMem(4 bytes @ 0xE0001000)
TFA50 000:186.083 - 79.210ms
TFA50 000:186.095 JLINK_Halt()
TFA50 000:186.099 - 0.003ms returns 0x00
TFA50 000:186.103 JLINK_ReadMemU32(0xE000EDF0, 0x1 Items)
TFA50 000:186.110   CPU_ReadMem(4 bytes @ 0xE000EDF0)
TFA50 000:186.605   Data:  03 00 03 00
TFA50 000:186.609   Debug reg: DHCSR
TFA50 000:186.614 - 0.510ms returns 1 (0x1)
TFA50 000:186.619 JLINK_WriteU32_64(0xE000EDF0, 0xA05F0003)
TFA50 000:186.622   Debug reg: DHCSR
TFA50 000:186.835   CPU_WriteMem(4 bytes @ 0xE000EDF0)
TFA50 000:187.360 - 0.741ms returns 0 (0x00000000)
TFA50 000:187.365 JLINK_WriteU32_64(0xE000EDFC, 0x01000000)
TFA50 000:187.368   Debug reg: DEMCR
TFA50 000:187.374   CPU_WriteMem(4 bytes @ 0xE000EDFC)
TFA50 000:187.917 - 0.551ms returns 0 (0x00000000)
TFA50 000:193.100 JLINK_GetHWStatus(...)
TFA50 000:193.904 - 0.805ms returns 0
TFA50 000:206.168 JLINK_GetNumBPUnits(Type = 0xFFFFFF00)
TFA50 000:206.181 - 0.013ms returns 0x04
TFA50 000:206.185 JLINK_GetNumBPUnits(Type = 0xF0)
TFA50 000:206.188 - 0.003ms returns 0x2000
TFA50 000:206.192 JLINK_GetNumWPUnits()
TFA50 000:206.195 - 0.002ms returns 2
TFA50 000:209.941 JLINK_GetSpeed()
TFA50 000:209.950 - 0.008ms returns 3000
TFA50 000:212.425 JLINK_ReadMemU32(0xE000E004, 0x1 Items)
TFA50 000:212.439   CPU_ReadMem(4 bytes @ 0xE000E004)
TFA50 000:213.391   Data:  00 00 00 00
TFA50 000:213.400 - 0.975ms returns 1 (0x1)
TFA50 000:213.408 JLINK_Halt()
TFA50 000:213.411 - 0.003ms returns 0x00
TFA50 000:213.484 JLINK_IsHalted()
TFA50 000:213.489 - 0.004ms returns TRUE
TFA50 000:215.110 JLINK_WriteMem(0x20000000, 0x3A8 Bytes, ...)
TFA50 000:215.116   Data:  00 BE 0A E0 0D 78 2D 06 68 40 08 24 40 00 00 D3 ...
TFA50 000:215.322   CPU_WriteMem(936 bytes @ 0x20000000)
TFA50 000:220.263 - 5.152ms returns 0x3A8
TFA50 000:220.309 JLINK_HasError()
TFA50 000:220.318 JLINK_WriteReg(R0, 0x08000000)
TFA50 000:220.324 - 0.009ms returns 0
TFA50 000:220.328 JLINK_WriteReg(R1, 0x00B71B00)
TFA50 000:220.331 - 0.003ms returns 0
TFA50 000:220.334 JLINK_WriteReg(R2, 0x00000001)
TFA50 000:220.337 - 0.003ms returns 0
TFA50 000:220.341 JLINK_WriteReg(R3, 0x00000000)
TFA50 000:220.343 - 0.003ms returns 0
TFA50 000:220.347 JLINK_WriteReg(R4, 0x00000000)
TFA50 000:220.350 - 0.002ms returns 0
TFA50 000:220.353 JLINK_WriteReg(R5, 0x00000000)
TFA50 000:220.356 - 0.002ms returns 0
TFA50 000:220.359 JLINK_WriteReg(R6, 0x00000000)
TFA50 000:220.362 - 0.002ms returns 0
TFA50 000:220.365 JLINK_WriteReg(R7, 0x00000000)
TFA50 000:220.368 - 0.002ms returns 0
TFA50 000:220.373 JLINK_WriteReg(R8, 0x00000000)
TFA50 000:220.376 - 0.004ms returns 0
TFA50 000:220.379 JLINK_WriteReg(R9, 0x200003A0)
TFA50 000:220.382 - 0.002ms returns 0
TFA50 000:220.385 JLINK_WriteReg(R10, 0x00000000)
TFA50 000:220.388 - 0.002ms returns 0
TFA50 000:220.392 JLINK_WriteReg(R11, 0x00000000)
TFA50 000:220.395 - 0.002ms returns 0
TFA50 000:220.398 JLINK_WriteReg(R12, 0x00000000)
TFA50 000:220.401 - 0.002ms returns 0
TFA50 000:220.404 JLINK_WriteReg(R13 (SP), 0x20001000)
TFA50 000:220.408 - 0.003ms returns 0
TFA50 000:220.411 JLINK_WriteReg(R14, 0x20000001)
TFA50 000:220.414 - 0.003ms returns 0
TFA50 000:220.419 JLINK_WriteReg(R15 (PC), 0x200000D2)
TFA50 000:220.422 - 0.004ms returns 0
TFA50 000:220.425 JLINK_WriteReg(XPSR, 0x01000000)
TFA50 000:220.428 - 0.003ms returns 0
TFA50 000:220.432 JLINK_WriteReg(MSP, 0x20001000)
TFA50 000:220.434 - 0.002ms returns 0
TFA50 000:220.438 JLINK_WriteReg(PSP, 0x20001000)
TFA50 000:220.441 - 0.002ms returns 0
TFA50 000:220.444 JLINK_WriteReg(CFBP, 0x00000000)
TFA50 000:220.447 - 0.003ms returns 0
TFA50 000:220.451 JLINK_SetBPEx(Addr = 0x20000000, Type = 0xFFFFFFF2)
TFA50 000:220.459   CPU_ReadMem(4 bytes @ 0x20000000)
TFA50 000:221.127   CPU_WriteMem(4 bytes @ 0x20000000)
TFA50 000:222.063   CPU_ReadMem(4 bytes @ 0x20000000)
TFA50 000:222.874   CPU_WriteMem(4 bytes @ 0x20000000)
TFA50 000:223.455   CPU_ReadMem(2 bytes @ 0x20000000)
TFA50 000:224.104 - 3.653ms returns 0x00000001
TFA50 000:224.111 JLINK_Go()
TFA50 000:224.116   CPU_WriteMem(2 bytes @ 0x20000000)
TFA50 000:224.641   CPU_ReadMem(4 bytes @ 0xE0001000)
TFA50 000:225.183   CPU_WriteMem(4 bytes @ 0xE0001000)
TFA50 000:225.749   CPU_WriteMem(4 bytes @ 0xE0002008)
TFA50 000:225.755   CPU_WriteMem(4 bytes @ 0xE000200C)
TFA50 000:225.759   CPU_WriteMem(4 bytes @ 0xE0002010)
TFA50 000:225.763   CPU_WriteMem(4 bytes @ 0xE0002014)
TFA50 000:226.766   CPU_WriteMem(4 bytes @ 0xE0001004)
TFA50 000:231.623   Memory map 'after startup completion point' is active
TFA50 000:231.633 - 7.521ms
TFA50 000:231.644 JLINK_IsHalted()
TFA50 000:234.438   CPU_ReadMem(2 bytes @ 0x20000000)
TFA50 000:235.126 - 3.482ms returns TRUE
TFA50 000:235.134 JLINK_ReadReg(R15 (PC))
TFA50 000:235.138 - 0.004ms returns 0x20000000
TFA50 000:235.142 JLINK_ClrBPEx(BPHandle = 0x00000001)
TFA50 000:235.145 - 0.003ms returns 0x00
TFA50 000:235.149 JLINK_ReadReg(R0)
TFA50 000:235.152 - 0.003ms returns 0x00000000
TFA50 000:235.326 JLINK_HasError()
TFA50 000:235.331 JLINK_WriteReg(R0, 0x08000000)
TFA50 000:235.335 - 0.004ms returns 0
TFA50 000:235.339 JLINK_WriteReg(R1, 0x00001000)
TFA50 000:235.342 - 0.003ms returns 0
TFA50 000:235.345 JLINK_WriteReg(R2, 0x000000FF)
TFA50 000:235.348 - 0.002ms returns 0
TFA50 000:235.352 JLINK_WriteReg(R3, 0x00000000)
TFA50 000:235.354 - 0.002ms returns 0
TFA50 000:235.358 JLINK_WriteReg(R4, 0x00000000)
TFA50 000:235.361 - 0.003ms returns 0
TFA50 000:235.364 JLINK_WriteReg(R5, 0x00000000)
TFA50 000:235.367 - 0.002ms returns 0
TFA50 000:235.370 JLINK_WriteReg(R6, 0x00000000)
TFA50 000:235.373 - 0.002ms returns 0
TFA50 000:235.377 JLINK_WriteReg(R7, 0x00000000)
TFA50 000:235.380 - 0.002ms returns 0
TFA50 000:235.383 JLINK_WriteReg(R8, 0x00000000)
TFA50 000:235.386 - 0.002ms returns 0
TFA50 000:235.389 JLINK_WriteReg(R9, 0x200003A0)
TFA50 000:235.392 - 0.003ms returns 0
TFA50 000:235.396 JLINK_WriteReg(R10, 0x00000000)
TFA50 000:235.398 - 0.003ms returns 0
TFA50 000:235.402 JLINK_WriteReg(R11, 0x00000000)
TFA50 000:235.405 - 0.003ms returns 0
TFA50 000:235.408 JLINK_WriteReg(R12, 0x00000000)
TFA50 000:235.411 - 0.002ms returns 0
TFA50 000:235.414 JLINK_WriteReg(R13 (SP), 0x20001000)
TFA50 000:235.418 - 0.003ms returns 0
TFA50 000:235.421 JLINK_WriteReg(R14, 0x20000001)
TFA50 000:235.424 - 0.003ms returns 0
TFA50 000:235.427 JLINK_WriteReg(R15 (PC), 0x200002D2)
TFA50 000:235.430 - 0.003ms returns 0
TFA50 000:235.434 JLINK_WriteReg(XPSR, 0x01000000)
TFA50 000:235.437 - 0.003ms returns 0
TFA50 000:235.440 JLINK_WriteReg(MSP, 0x20001000)
TFA50 000:235.443 - 0.002ms returns 0
TFA50 000:235.446 JLINK_WriteReg(PSP, 0x20001000)
TFA50 000:235.449 - 0.002ms returns 0
TFA50 000:235.453 JLINK_WriteReg(CFBP, 0x00000000)
TFA50 000:235.455 - 0.002ms returns 0
TFA50 000:235.459 JLINK_SetBPEx(Addr = 0x20000000, Type = 0xFFFFFFF2)
TFA50 000:235.463 - 0.003ms returns 0x00000002
TFA50 000:235.466 JLINK_Go()
TFA50 000:235.472   CPU_ReadMem(4 bytes @ 0xE0001000)
TFA50 000:238.846 - 3.379ms
TFA50 000:238.853 JLINK_IsHalted()
TFA50 000:241.591   CPU_ReadMem(2 bytes @ 0x20000000)
TFA50 000:242.155 - 3.302ms returns TRUE
TFA50 000:242.164 JLINK_ReadReg(R15 (PC))
TFA50 000:242.169 - 0.004ms returns 0x20000000
TFA50 000:242.173 JLINK_ClrBPEx(BPHandle = 0x00000002)
TFA50 000:242.177 - 0.003ms returns 0x00
TFA50 000:242.180 JLINK_ReadReg(R0)
TFA50 000:242.183 - 0.003ms returns 0x00000001
TFA50 000:242.187 JLINK_HasError()
TFA50 000:242.191 JLINK_WriteReg(R0, 0x08000000)
TFA50 000:242.194 - 0.003ms returns 0
TFA50 000:242.198 JLINK_WriteReg(R1, 0x00001000)
TFA50 000:242.200 - 0.002ms returns 0
TFA50 000:242.204 JLINK_WriteReg(R2, 0x000000FF)
TFA50 000:242.207 - 0.002ms returns 0
TFA50 000:242.210 JLINK_WriteReg(R3, 0x00000000)
TFA50 000:242.213 - 0.002ms returns 0
TFA50 000:242.247 JLINK_WriteReg(R4, 0x00000000)
TFA50 000:242.252 - 0.004ms returns 0
TFA50 000:242.255 JLINK_WriteReg(R5, 0x00000000)
TFA50 000:242.258 - 0.002ms returns 0
TFA50 000:242.261 JLINK_WriteReg(R6, 0x00000000)
TFA50 000:242.264 - 0.003ms returns 0
TFA50 000:242.267 JLINK_WriteReg(R7, 0x00000000)
TFA50 000:242.270 - 0.002ms returns 0
TFA50 000:242.274 JLINK_WriteReg(R8, 0x00000000)
TFA50 000:242.277 - 0.002ms returns 0
TFA50 000:242.280 JLINK_WriteReg(R9, 0x200003A0)
TFA50 000:242.283 - 0.002ms returns 0
TFA50 000:242.286 JLINK_WriteReg(R10, 0x00000000)
TFA50 000:242.289 - 0.002ms returns 0
TFA50 000:242.292 JLINK_WriteReg(R11, 0x00000000)
TFA50 000:242.295 - 0.002ms returns 0
TFA50 000:242.303 JLINK_WriteReg(R12, 0x00000000)
TFA50 000:242.306 - 0.003ms returns 0
TFA50 000:242.310 JLINK_WriteReg(R13 (SP), 0x20001000)
TFA50 000:242.313 - 0.003ms returns 0
TFA50 000:242.316 JLINK_WriteReg(R14, 0x20000001)
TFA50 000:242.323 - 0.006ms returns 0
TFA50 000:242.326 JLINK_WriteReg(R15 (PC), 0x2000026E)
TFA50 000:242.329 - 0.003ms returns 0
TFA50 000:242.333 JLINK_WriteReg(XPSR, 0x01000000)
TFA50 000:242.335 - 0.003ms returns 0
TFA50 000:242.342 JLINK_WriteReg(MSP, 0x20001000)
TFA50 000:242.345 - 0.003ms returns 0
TFA50 000:242.348 JLINK_WriteReg(PSP, 0x20001000)
TFA50 000:242.355 - 0.006ms returns 0
TFA50 000:242.358 JLINK_WriteReg(CFBP, 0x00000000)
TFA50 000:242.361 - 0.003ms returns 0
TFA50 000:242.368 JLINK_SetBPEx(Addr = 0x20000000, Type = 0xFFFFFFF2)
TFA50 000:242.374 - 0.003ms returns 0x00000003
TFA50 000:242.386 JLINK_Go()
TFA50 000:242.394   CPU_ReadMem(4 bytes @ 0xE0001000)
TFA50 000:245.777 - 3.398ms
TFA50 000:245.831 JLINK_IsHalted()
TFA50 000:249.754 - 3.917ms returns FALSE
TFA50 000:249.797 JLINK_HasError()
TFA50 000:262.255 JLINK_IsHalted()
TFA50 000:265.902   CPU_ReadMem(2 bytes @ 0x20000000)
TFA50 000:266.709 - 4.453ms returns TRUE
TFA50 000:266.719 JLINK_ReadReg(R15 (PC))
TFA50 000:266.725 - 0.005ms returns 0x20000000
TFA50 000:266.729 JLINK_ClrBPEx(BPHandle = 0x00000003)
TFA50 000:266.732 - 0.003ms returns 0x00
TFA50 000:266.736 JLINK_ReadReg(R0)
TFA50 000:266.739 - 0.003ms returns 0x00000000
TFA50 000:267.017 JLINK_HasError()
TFA50 000:267.023 JLINK_WriteReg(R0, 0x08001000)
TFA50 000:267.027 - 0.004ms returns 0
TFA50 000:267.031 JLINK_WriteReg(R1, 0x00001000)
TFA50 000:267.034 - 0.003ms returns 0
TFA50 000:267.037 JLINK_WriteReg(R2, 0x000000FF)
TFA50 000:267.040 - 0.003ms returns 0
TFA50 000:267.044 JLINK_WriteReg(R3, 0x00000000)
TFA50 000:267.046 - 0.002ms returns 0
TFA50 000:267.050 JLINK_WriteReg(R4, 0x00000000)
TFA50 000:267.053 - 0.002ms returns 0
TFA50 000:267.056 JLINK_WriteReg(R5, 0x00000000)
TFA50 000:267.059 - 0.003ms returns 0
TFA50 000:267.062 JLINK_WriteReg(R6, 0x00000000)
TFA50 000:267.065 - 0.002ms returns 0
TFA50 000:267.069 JLINK_WriteReg(R7, 0x00000000)
TFA50 000:267.072 - 0.003ms returns 0
TFA50 000:267.075 JLINK_WriteReg(R8, 0x00000000)
TFA50 000:267.078 - 0.003ms returns 0
TFA50 000:267.081 JLINK_WriteReg(R9, 0x200003A0)
TFA50 000:267.084 - 0.003ms returns 0
TFA50 000:267.087 JLINK_WriteReg(R10, 0x00000000)
TFA50 000:267.090 - 0.003ms returns 0
TFA50 000:267.094 JLINK_WriteReg(R11, 0x00000000)
TFA50 000:267.097 - 0.003ms returns 0
TFA50 000:267.100 JLINK_WriteReg(R12, 0x00000000)
TFA50 000:267.103 - 0.003ms returns 0
TFA50 000:267.107 JLINK_WriteReg(R13 (SP), 0x20001000)
TFA50 000:267.110 - 0.003ms returns 0
TFA50 000:267.113 JLINK_WriteReg(R14, 0x20000001)
TFA50 000:267.116 - 0.003ms returns 0
TFA50 000:267.119 JLINK_WriteReg(R15 (PC), 0x200002D2)
TFA50 000:267.122 - 0.003ms returns 0
TFA50 000:267.126 JLINK_WriteReg(XPSR, 0x01000000)
TFA50 000:267.129 - 0.003ms returns 0
TFA50 000:267.132 JLINK_WriteReg(MSP, 0x20001000)
TFA50 000:267.135 - 0.002ms returns 0
TFA50 000:267.138 JLINK_WriteReg(PSP, 0x20001000)
TFA50 000:267.141 - 0.002ms returns 0
TFA50 000:267.144 JLINK_WriteReg(CFBP, 0x00000000)
TFA50 000:267.147 - 0.002ms returns 0
TFA50 000:267.151 JLINK_SetBPEx(Addr = 0x20000000, Type = 0xFFFFFFF2)
TFA50 000:267.157 - 0.005ms returns 0x00000004
TFA50 000:267.162 JLINK_Go()
TFA50 000:267.169   CPU_ReadMem(4 bytes @ 0xE0001000)
TFA50 000:270.672 - 3.510ms
TFA50 000:270.681 JLINK_IsHalted()
TFA50 000:273.544   CPU_ReadMem(2 bytes @ 0x20000000)
TFA50 000:274.147 - 3.466ms returns TRUE
TFA50 000:274.153 JLINK_ReadReg(R15 (PC))
TFA50 000:274.157 - 0.004ms returns 0x20000000
TFA50 000:274.161 JLINK_ClrBPEx(BPHandle = 0x00000004)
TFA50 000:274.164 - 0.003ms returns 0x00
TFA50 000:274.168 JLINK_ReadReg(R0)
TFA50 000:274.171 - 0.003ms returns 0x00000001
TFA50 000:274.175 JLINK_HasError()
TFA50 000:274.179 JLINK_WriteReg(R0, 0x08001000)
TFA50 000:274.182 - 0.003ms returns 0
TFA50 000:274.186 JLINK_WriteReg(R1, 0x00001000)
TFA50 000:274.189 - 0.003ms returns 0
TFA50 000:274.192 JLINK_WriteReg(R2, 0x000000FF)
TFA50 000:274.195 - 0.002ms returns 0
TFA50 000:274.198 JLINK_WriteReg(R3, 0x00000000)
TFA50 000:274.201 - 0.002ms returns 0
TFA50 000:274.204 JLINK_WriteReg(R4, 0x00000000)
TFA50 000:274.207 - 0.002ms returns 0
TFA50 000:274.211 JLINK_WriteReg(R5, 0x00000000)
TFA50 000:274.213 - 0.002ms returns 0
TFA50 000:274.217 JLINK_WriteReg(R6, 0x00000000)
TFA50 000:274.220 - 0.002ms returns 0
TFA50 000:274.223 JLINK_WriteReg(R7, 0x00000000)
TFA50 000:274.226 - 0.002ms returns 0
TFA50 000:274.229 JLINK_WriteReg(R8, 0x00000000)
TFA50 000:274.232 - 0.003ms returns 0
TFA50 000:274.236 JLINK_WriteReg(R9, 0x200003A0)
TFA50 000:274.238 - 0.002ms returns 0
TFA50 000:274.242 JLINK_WriteReg(R10, 0x00000000)
TFA50 000:274.245 - 0.003ms returns 0
TFA50 000:274.248 JLINK_WriteReg(R11, 0x00000000)
TFA50 000:274.251 - 0.002ms returns 0
TFA50 000:274.254 JLINK_WriteReg(R12, 0x00000000)
TFA50 000:274.257 - 0.002ms returns 0
TFA50 000:274.261 JLINK_WriteReg(R13 (SP), 0x20001000)
TFA50 000:274.264 - 0.003ms returns 0
TFA50 000:274.267 JLINK_WriteReg(R14, 0x20000001)
TFA50 000:274.270 - 0.003ms returns 0
TFA50 000:274.273 JLINK_WriteReg(R15 (PC), 0x2000026E)
TFA50 000:274.276 - 0.003ms returns 0
TFA50 000:274.280 JLINK_WriteReg(XPSR, 0x01000000)
TFA50 000:274.283 - 0.003ms returns 0
TFA50 000:274.286 JLINK_WriteReg(MSP, 0x20001000)
TFA50 000:274.289 - 0.003ms returns 0
TFA50 000:274.292 JLINK_WriteReg(PSP, 0x20001000)
TFA50 000:274.295 - 0.002ms returns 0
TFA50 000:274.299 JLINK_WriteReg(CFBP, 0x00000000)
TFA50 000:274.301 - 0.002ms returns 0
TFA50 000:274.305 JLINK_SetBPEx(Addr = 0x20000000, Type = 0xFFFFFFF2)
TFA50 000:274.308 - 0.003ms returns 0x00000005
TFA50 000:274.312 JLINK_Go()
TFA50 000:274.318   CPU_ReadMem(4 bytes @ 0xE0001000)
TFA50 000:277.673 - 3.361ms
TFA50 000:277.678 JLINK_IsHalted()
TFA50 000:281.621 - 3.942ms returns FALSE
TFA50 000:281.625 JLINK_HasError()
TFA50 000:283.563 JLINK_IsHalted()
TFA50 000:286.337   CPU_ReadMem(2 bytes @ 0x20000000)
TFA50 000:286.917 - 3.356ms returns TRUE
TFA50 000:286.924 JLINK_ReadReg(R15 (PC))
TFA50 000:286.929 - 0.004ms returns 0x20000000
TFA50 000:286.961 JLINK_ClrBPEx(BPHandle = 0x00000005)
TFA50 000:286.965 - 0.003ms returns 0x00
TFA50 000:286.969 JLINK_ReadReg(R0)
TFA50 000:286.972 - 0.003ms returns 0x00000000
TFA50 000:287.458 JLINK_HasError()
TFA50 000:287.469 JLINK_WriteReg(R0, 0x08002000)
TFA50 000:287.474 - 0.005ms returns 0
TFA50 000:287.478 JLINK_WriteReg(R1, 0x00001000)
TFA50 000:287.482 - 0.003ms returns 0
TFA50 000:287.487 JLINK_WriteReg(R2, 0x000000FF)
TFA50 000:287.490 - 0.003ms returns 0
TFA50 000:287.493 JLINK_WriteReg(R3, 0x00000000)
TFA50 000:287.496 - 0.003ms returns 0
TFA50 000:287.500 JLINK_WriteReg(R4, 0x00000000)
TFA50 000:287.503 - 0.003ms returns 0
TFA50 000:287.507 JLINK_WriteReg(R5, 0x00000000)
TFA50 000:287.510 - 0.003ms returns 0
TFA50 000:287.513 JLINK_WriteReg(R6, 0x00000000)
TFA50 000:287.516 - 0.003ms returns 0
TFA50 000:287.520 JLINK_WriteReg(R7, 0x00000000)
TFA50 000:287.523 - 0.003ms returns 0
TFA50 000:287.526 JLINK_WriteReg(R8, 0x00000000)
TFA50 000:287.529 - 0.003ms returns 0
TFA50 000:287.533 JLINK_WriteReg(R9, 0x200003A0)
TFA50 000:287.536 - 0.003ms returns 0
TFA50 000:287.541 JLINK_WriteReg(R10, 0x00000000)
TFA50 000:287.545 - 0.004ms returns 0
TFA50 000:287.549 JLINK_WriteReg(R11, 0x00000000)
TFA50 000:287.552 - 0.003ms returns 0
TFA50 000:287.555 JLINK_WriteReg(R12, 0x00000000)
TFA50 000:287.559 - 0.003ms returns 0
TFA50 000:287.562 JLINK_WriteReg(R13 (SP), 0x20001000)
TFA50 000:287.566 - 0.004ms returns 0
TFA50 000:287.570 JLINK_WriteReg(R14, 0x20000001)
TFA50 000:287.573 - 0.003ms returns 0
TFA50 000:287.577 JLINK_WriteReg(R15 (PC), 0x200002D2)
TFA50 000:287.580 - 0.003ms returns 0
TFA50 000:287.583 JLINK_WriteReg(XPSR, 0x01000000)
TFA50 000:287.586 - 0.003ms returns 0
TFA50 000:287.590 JLINK_WriteReg(MSP, 0x20001000)
TFA50 000:287.593 - 0.003ms returns 0
TFA50 000:287.597 JLINK_WriteReg(PSP, 0x20001000)
TFA50 000:287.600 - 0.003ms returns 0
TFA50 000:287.603 JLINK_WriteReg(CFBP, 0x00000000)
TFA50 000:287.606 - 0.003ms returns 0
TFA50 000:287.610 JLINK_SetBPEx(Addr = 0x20000000, Type = 0xFFFFFFF2)
TFA50 000:287.614 - 0.004ms returns 0x00000006
TFA50 000:287.618 JLINK_Go()
TFA50 000:287.625   CPU_ReadMem(4 bytes @ 0xE0001000)
TFA50 000:290.925 - 3.303ms
TFA50 000:290.951 JLINK_IsHalted()
TFA50 000:293.767   CPU_ReadMem(2 bytes @ 0x20000000)
TFA50 000:294.312 - 3.360ms returns TRUE
TFA50 000:294.317 JLINK_ReadReg(R15 (PC))
TFA50 000:294.321 - 0.004ms returns 0x20000000
TFA50 000:294.324 JLINK_ClrBPEx(BPHandle = 0x00000006)
TFA50 000:294.327 - 0.003ms returns 0x00
TFA50 000:294.331 JLINK_ReadReg(R0)
TFA50 000:294.334 - 0.003ms returns 0x00000001
TFA50 000:294.338 JLINK_HasError()
TFA50 000:294.341 JLINK_WriteReg(R0, 0x08002000)
TFA50 000:294.345 - 0.003ms returns 0
TFA50 000:294.348 JLINK_WriteReg(R1, 0x00001000)
TFA50 000:294.351 - 0.002ms returns 0
TFA50 000:294.354 JLINK_WriteReg(R2, 0x000000FF)
TFA50 000:294.357 - 0.002ms returns 0
TFA50 000:294.360 JLINK_WriteReg(R3, 0x00000000)
TFA50 000:294.363 - 0.002ms returns 0
TFA50 000:294.367 JLINK_WriteReg(R4, 0x00000000)
TFA50 000:294.369 - 0.002ms returns 0
TFA50 000:294.373 JLINK_WriteReg(R5, 0x00000000)
TFA50 000:294.376 - 0.002ms returns 0
TFA50 000:294.379 JLINK_WriteReg(R6, 0x00000000)
TFA50 000:294.382 - 0.002ms returns 0
TFA50 000:294.385 JLINK_WriteReg(R7, 0x00000000)
TFA50 000:294.388 - 0.002ms returns 0
TFA50 000:294.391 JLINK_WriteReg(R8, 0x00000000)
TFA50 000:294.394 - 0.002ms returns 0
TFA50 000:294.397 JLINK_WriteReg(R9, 0x200003A0)
TFA50 000:294.400 - 0.002ms returns 0
TFA50 000:294.404 JLINK_WriteReg(R10, 0x00000000)
TFA50 000:294.406 - 0.003ms returns 0
TFA50 000:294.410 JLINK_WriteReg(R11, 0x00000000)
TFA50 000:294.413 - 0.002ms returns 0
TFA50 000:294.416 JLINK_WriteReg(R12, 0x00000000)
TFA50 000:294.419 - 0.002ms returns 0
TFA50 000:294.422 JLINK_WriteReg(R13 (SP), 0x20001000)
TFA50 000:294.425 - 0.003ms returns 0
TFA50 000:294.429 JLINK_WriteReg(R14, 0x20000001)
TFA50 000:294.431 - 0.002ms returns 0
TFA50 000:294.435 JLINK_WriteReg(R15 (PC), 0x2000026E)
TFA50 000:294.438 - 0.003ms returns 0
TFA50 000:294.441 JLINK_WriteReg(XPSR, 0x01000000)
TFA50 000:294.444 - 0.003ms returns 0
TFA50 000:294.447 JLINK_WriteReg(MSP, 0x20001000)
TFA50 000:294.450 - 0.002ms returns 0
TFA50 000:294.453 JLINK_WriteReg(PSP, 0x20001000)
TFA50 000:294.456 - 0.002ms returns 0
TFA50 000:294.459 JLINK_WriteReg(CFBP, 0x00000000)
TFA50 000:294.462 - 0.002ms returns 0
TFA50 000:294.466 JLINK_SetBPEx(Addr = 0x20000000, Type = 0xFFFFFFF2)
TFA50 000:294.469 - 0.003ms returns 0x00000007
TFA50 000:294.473 JLINK_Go()
TFA50 000:294.478   CPU_ReadMem(4 bytes @ 0xE0001000)
TFA50 000:297.704 - 3.231ms
TFA50 000:297.709 JLINK_IsHalted()
TFA50 000:301.747 - 4.037ms returns FALSE
TFA50 000:301.753 JLINK_HasError()
TFA50 000:303.742 JLINK_IsHalted()
TFA50 000:306.761   CPU_ReadMem(2 bytes @ 0x20000000)
TFA50 000:307.406 - 3.667ms returns TRUE
TFA50 000:307.411 JLINK_ReadReg(R15 (PC))
TFA50 000:307.415 - 0.004ms returns 0x20000000
TFA50 000:307.419 JLINK_ClrBPEx(BPHandle = 0x00000007)
TFA50 000:307.422 - 0.003ms returns 0x00
TFA50 000:307.425 JLINK_ReadReg(R0)
TFA50 000:307.430 - 0.004ms returns 0x00000000
TFA50 000:307.732 JLINK_HasError()
TFA50 000:307.738 JLINK_WriteReg(R0, 0x08003000)
TFA50 000:307.742 - 0.004ms returns 0
TFA50 000:307.746 JLINK_WriteReg(R1, 0x00001000)
TFA50 000:307.749 - 0.003ms returns 0
TFA50 000:307.752 JLINK_WriteReg(R2, 0x000000FF)
TFA50 000:307.755 - 0.003ms returns 0
TFA50 000:307.759 JLINK_WriteReg(R3, 0x00000000)
TFA50 000:307.762 - 0.002ms returns 0
TFA50 000:307.765 JLINK_WriteReg(R4, 0x00000000)
TFA50 000:307.768 - 0.002ms returns 0
TFA50 000:307.771 JLINK_WriteReg(R5, 0x00000000)
TFA50 000:307.774 - 0.002ms returns 0
TFA50 000:307.777 JLINK_WriteReg(R6, 0x00000000)
TFA50 000:307.780 - 0.002ms returns 0
TFA50 000:307.783 JLINK_WriteReg(R7, 0x00000000)
TFA50 000:307.786 - 0.002ms returns 0
TFA50 000:307.790 JLINK_WriteReg(R8, 0x00000000)
TFA50 000:307.792 - 0.002ms returns 0
TFA50 000:307.796 JLINK_WriteReg(R9, 0x200003A0)
TFA50 000:307.799 - 0.002ms returns 0
TFA50 000:307.802 JLINK_WriteReg(R10, 0x00000000)
TFA50 000:307.805 - 0.003ms returns 0
TFA50 000:307.808 JLINK_WriteReg(R11, 0x00000000)
TFA50 000:307.811 - 0.003ms returns 0
TFA50 000:307.814 JLINK_WriteReg(R12, 0x00000000)
TFA50 000:307.817 - 0.002ms returns 0
TFA50 000:307.821 JLINK_WriteReg(R13 (SP), 0x20001000)
TFA50 000:307.824 - 0.003ms returns 0
TFA50 000:307.827 JLINK_WriteReg(R14, 0x20000001)
TFA50 000:307.830 - 0.003ms returns 0
TFA50 000:307.833 JLINK_WriteReg(R15 (PC), 0x200002D2)
TFA50 000:307.836 - 0.003ms returns 0
TFA50 000:307.840 JLINK_WriteReg(XPSR, 0x01000000)
TFA50 000:307.843 - 0.002ms returns 0
TFA50 000:307.846 JLINK_WriteReg(MSP, 0x20001000)
TFA50 000:307.849 - 0.002ms returns 0
TFA50 000:307.852 JLINK_WriteReg(PSP, 0x20001000)
TFA50 000:307.855 - 0.002ms returns 0
TFA50 000:307.858 JLINK_WriteReg(CFBP, 0x00000000)
TFA50 000:307.861 - 0.002ms returns 0
TFA50 000:307.865 JLINK_SetBPEx(Addr = 0x20000000, Type = 0xFFFFFFF2)
TFA50 000:307.868 - 0.003ms returns 0x00000008
TFA50 000:307.872 JLINK_Go()
TFA50 000:307.878   CPU_ReadMem(4 bytes @ 0xE0001000)
TFA50 000:311.203 - 3.331ms
TFA50 000:311.209 JLINK_IsHalted()
TFA50 000:314.035   CPU_ReadMem(2 bytes @ 0x20000000)
TFA50 000:314.645 - 3.436ms returns TRUE
TFA50 000:314.652 JLINK_ReadReg(R15 (PC))
TFA50 000:314.656 - 0.003ms returns 0x20000000
TFA50 000:314.680 JLINK_ClrBPEx(BPHandle = 0x00000008)
TFA50 000:314.684 - 0.003ms returns 0x00
TFA50 000:314.687 JLINK_ReadReg(R0)
TFA50 000:314.690 - 0.003ms returns 0x00000001
TFA50 000:314.694 JLINK_HasError()
TFA50 000:314.697 JLINK_WriteReg(R0, 0x08003000)
TFA50 000:314.700 - 0.003ms returns 0
TFA50 000:314.704 JLINK_WriteReg(R1, 0x00001000)
TFA50 000:314.707 - 0.002ms returns 0
TFA50 000:314.710 JLINK_WriteReg(R2, 0x000000FF)
TFA50 000:314.713 - 0.002ms returns 0
TFA50 000:314.716 JLINK_WriteReg(R3, 0x00000000)
TFA50 000:314.719 - 0.002ms returns 0
TFA50 000:314.722 JLINK_WriteReg(R4, 0x00000000)
TFA50 000:314.725 - 0.002ms returns 0
TFA50 000:314.728 JLINK_WriteReg(R5, 0x00000000)
TFA50 000:314.731 - 0.002ms returns 0
TFA50 000:314.734 JLINK_WriteReg(R6, 0x00000000)
TFA50 000:314.737 - 0.002ms returns 0
TFA50 000:314.741 JLINK_WriteReg(R7, 0x00000000)
TFA50 000:314.743 - 0.002ms returns 0
TFA50 000:314.747 JLINK_WriteReg(R8, 0x00000000)
TFA50 000:314.750 - 0.002ms returns 0
TFA50 000:314.753 JLINK_WriteReg(R9, 0x200003A0)
TFA50 000:314.756 - 0.002ms returns 0
TFA50 000:314.759 JLINK_WriteReg(R10, 0x00000000)
TFA50 000:314.762 - 0.002ms returns 0
TFA50 000:314.765 JLINK_WriteReg(R11, 0x00000000)
TFA50 000:314.768 - 0.002ms returns 0
TFA50 000:314.771 JLINK_WriteReg(R12, 0x00000000)
TFA50 000:314.774 - 0.002ms returns 0
TFA50 000:314.778 JLINK_WriteReg(R13 (SP), 0x20001000)
TFA50 000:314.781 - 0.003ms returns 0
TFA50 000:314.784 JLINK_WriteReg(R14, 0x20000001)
TFA50 000:314.787 - 0.002ms returns 0
TFA50 000:314.790 JLINK_WriteReg(R15 (PC), 0x2000026E)
TFA50 000:314.793 - 0.002ms returns 0
TFA50 000:314.796 JLINK_WriteReg(XPSR, 0x01000000)
TFA50 000:314.799 - 0.002ms returns 0
TFA50 000:314.835 JLINK_WriteReg(MSP, 0x20001000)
TFA50 000:314.839 - 0.003ms returns 0
TFA50 000:314.842 JLINK_WriteReg(PSP, 0x20001000)
TFA50 000:314.845 - 0.003ms returns 0
TFA50 000:314.849 JLINK_WriteReg(CFBP, 0x00000000)
TFA50 000:314.851 - 0.003ms returns 0
TFA50 000:314.855 JLINK_SetBPEx(Addr = 0x20000000, Type = 0xFFFFFFF2)
TFA50 000:314.858 - 0.003ms returns 0x00000009
TFA50 000:314.862 JLINK_Go()
TFA50 000:314.867   CPU_ReadMem(4 bytes @ 0xE0001000)
TFA50 000:318.128 - 3.266ms
TFA50 000:318.134 JLINK_IsHalted()
TFA50 000:322.047 - 3.912ms returns FALSE
TFA50 000:322.056 JLINK_HasError()
TFA50 000:323.703 JLINK_IsHalted()
TFA50 000:326.671   CPU_ReadMem(2 bytes @ 0x20000000)
TFA50 000:327.252 - 3.548ms returns TRUE
TFA50 000:327.257 JLINK_ReadReg(R15 (PC))
TFA50 000:327.261 - 0.004ms returns 0x20000000
TFA50 000:327.265 JLINK_ClrBPEx(BPHandle = 0x00000009)
TFA50 000:327.268 - 0.003ms returns 0x00
TFA50 000:327.271 JLINK_ReadReg(R0)
TFA50 000:327.274 - 0.003ms returns 0x00000000
TFA50 000:327.544 JLINK_HasError()
TFA50 000:327.551 JLINK_WriteReg(R0, 0x08004000)
TFA50 000:327.555 - 0.004ms returns 0
TFA50 000:327.558 JLINK_WriteReg(R1, 0x00001000)
TFA50 000:327.561 - 0.003ms returns 0
TFA50 000:327.565 JLINK_WriteReg(R2, 0x000000FF)
TFA50 000:327.568 - 0.002ms returns 0
TFA50 000:327.571 JLINK_WriteReg(R3, 0x00000000)
TFA50 000:327.574 - 0.002ms returns 0
TFA50 000:327.577 JLINK_WriteReg(R4, 0x00000000)
TFA50 000:327.580 - 0.002ms returns 0
TFA50 000:327.583 JLINK_WriteReg(R5, 0x00000000)
TFA50 000:327.586 - 0.002ms returns 0
TFA50 000:327.589 JLINK_WriteReg(R6, 0x00000000)
TFA50 000:327.592 - 0.002ms returns 0
TFA50 000:327.595 JLINK_WriteReg(R7, 0x00000000)
TFA50 000:327.598 - 0.002ms returns 0
TFA50 000:327.602 JLINK_WriteReg(R8, 0x00000000)
TFA50 000:327.605 - 0.003ms returns 0
TFA50 000:327.608 JLINK_WriteReg(R9, 0x200003A0)
TFA50 000:327.611 - 0.002ms returns 0
TFA50 000:327.614 JLINK_WriteReg(R10, 0x00000000)
TFA50 000:327.617 - 0.003ms returns 0
TFA50 000:327.620 JLINK_WriteReg(R11, 0x00000000)
TFA50 000:327.623 - 0.002ms returns 0
TFA50 000:327.626 JLINK_WriteReg(R12, 0x00000000)
TFA50 000:327.629 - 0.002ms returns 0
TFA50 000:327.633 JLINK_WriteReg(R13 (SP), 0x20001000)
TFA50 000:327.636 - 0.003ms returns 0
TFA50 000:327.639 JLINK_WriteReg(R14, 0x20000001)
TFA50 000:327.642 - 0.003ms returns 0
TFA50 000:327.645 JLINK_WriteReg(R15 (PC), 0x200002D2)
TFA50 000:327.648 - 0.003ms returns 0
TFA50 000:327.652 JLINK_WriteReg(XPSR, 0x01000000)
TFA50 000:327.655 - 0.003ms returns 0
TFA50 000:327.658 JLINK_WriteReg(MSP, 0x20001000)
TFA50 000:327.661 - 0.002ms returns 0
TFA50 000:327.664 JLINK_WriteReg(PSP, 0x20001000)
TFA50 000:327.667 - 0.002ms returns 0
TFA50 000:327.671 JLINK_WriteReg(CFBP, 0x00000000)
TFA50 000:327.673 - 0.003ms returns 0
TFA50 000:327.677 JLINK_SetBPEx(Addr = 0x20000000, Type = 0xFFFFFFF2)
TFA50 000:327.680 - 0.003ms returns 0x0000000A
TFA50 000:327.684 JLINK_Go()
TFA50 000:327.690   CPU_ReadMem(4 bytes @ 0xE0001000)
TFA50 000:331.159 - 3.474ms
TFA50 000:331.164 JLINK_IsHalted()
TFA50 000:333.895   CPU_ReadMem(2 bytes @ 0x20000000)
TFA50 000:334.420 - 3.255ms returns TRUE
TFA50 000:334.427 JLINK_ReadReg(R15 (PC))
TFA50 000:334.431 - 0.004ms returns 0x20000000
TFA50 000:334.435 JLINK_ClrBPEx(BPHandle = 0x0000000A)
TFA50 000:334.438 - 0.003ms returns 0x00
TFA50 000:334.442 JLINK_ReadReg(R0)
TFA50 000:334.445 - 0.003ms returns 0x00000001
TFA50 000:334.448 JLINK_HasError()
TFA50 000:334.452 JLINK_WriteReg(R0, 0x08004000)
TFA50 000:334.456 - 0.003ms returns 0
TFA50 000:334.459 JLINK_WriteReg(R1, 0x00001000)
TFA50 000:334.462 - 0.003ms returns 0
TFA50 000:334.465 JLINK_WriteReg(R2, 0x000000FF)
TFA50 000:334.468 - 0.003ms returns 0
TFA50 000:334.471 JLINK_WriteReg(R3, 0x00000000)
TFA50 000:334.474 - 0.002ms returns 0
TFA50 000:334.478 JLINK_WriteReg(R4, 0x00000000)
TFA50 000:334.480 - 0.002ms returns 0
TFA50 000:334.484 JLINK_WriteReg(R5, 0x00000000)
TFA50 000:334.487 - 0.002ms returns 0
TFA50 000:334.490 JLINK_WriteReg(R6, 0x00000000)
TFA50 000:334.516 - 0.026ms returns 0
TFA50 000:334.520 JLINK_WriteReg(R7, 0x00000000)
TFA50 000:334.523 - 0.002ms returns 0
TFA50 000:334.526 JLINK_WriteReg(R8, 0x00000000)
TFA50 000:334.529 - 0.003ms returns 0
TFA50 000:334.532 JLINK_WriteReg(R9, 0x200003A0)
TFA50 000:334.535 - 0.002ms returns 0
TFA50 000:334.539 JLINK_WriteReg(R10, 0x00000000)
TFA50 000:334.542 - 0.003ms returns 0
TFA50 000:334.545 JLINK_WriteReg(R11, 0x00000000)
TFA50 000:334.548 - 0.002ms returns 0
TFA50 000:334.551 JLINK_WriteReg(R12, 0x00000000)
TFA50 000:334.554 - 0.002ms returns 0
TFA50 000:334.557 JLINK_WriteReg(R13 (SP), 0x20001000)
TFA50 000:334.560 - 0.003ms returns 0
TFA50 000:334.564 JLINK_WriteReg(R14, 0x20000001)
TFA50 000:334.567 - 0.002ms returns 0
TFA50 000:334.570 JLINK_WriteReg(R15 (PC), 0x2000026E)
TFA50 000:334.573 - 0.003ms returns 0
TFA50 000:334.576 JLINK_WriteReg(XPSR, 0x01000000)
TFA50 000:334.579 - 0.002ms returns 0
TFA50 000:334.582 JLINK_WriteReg(MSP, 0x20001000)
TFA50 000:334.585 - 0.002ms returns 0
TFA50 000:334.589 JLINK_WriteReg(PSP, 0x20001000)
TFA50 000:334.591 - 0.002ms returns 0
TFA50 000:334.595 JLINK_WriteReg(CFBP, 0x00000000)
TFA50 000:334.598 - 0.002ms returns 0
TFA50 000:334.601 JLINK_SetBPEx(Addr = 0x20000000, Type = 0xFFFFFFF2)
TFA50 000:334.605 - 0.003ms returns 0x0000000B
TFA50 000:334.608 JLINK_Go()
TFA50 000:334.614   CPU_ReadMem(4 bytes @ 0xE0001000)
TFA50 000:337.829 - 3.220ms
TFA50 000:337.838 JLINK_IsHalted()
TFA50 000:341.754 - 3.916ms returns FALSE
TFA50 000:341.763 JLINK_HasError()
TFA50 000:343.721 JLINK_IsHalted()
TFA50 000:346.546   CPU_ReadMem(2 bytes @ 0x20000000)
TFA50 000:347.279 - 3.557ms returns TRUE
TFA50 000:347.285 JLINK_ReadReg(R15 (PC))
TFA50 000:347.290 - 0.004ms returns 0x20000000
TFA50 000:347.293 JLINK_ClrBPEx(BPHandle = 0x0000000B)
TFA50 000:347.296 - 0.003ms returns 0x00
TFA50 000:347.300 JLINK_ReadReg(R0)
TFA50 000:347.303 - 0.003ms returns 0x00000000
TFA50 000:347.495 JLINK_HasError()
TFA50 000:347.500 JLINK_WriteReg(R0, 0x00000001)
TFA50 000:347.504 - 0.003ms returns 0
TFA50 000:347.508 JLINK_WriteReg(R1, 0x00001000)
TFA50 000:347.511 - 0.003ms returns 0
TFA50 000:347.514 JLINK_WriteReg(R2, 0x000000FF)
TFA50 000:347.517 - 0.002ms returns 0
TFA50 000:347.520 JLINK_WriteReg(R3, 0x00000000)
TFA50 000:347.523 - 0.002ms returns 0
TFA50 000:347.526 JLINK_WriteReg(R4, 0x00000000)
TFA50 000:347.529 - 0.003ms returns 0
TFA50 000:347.533 JLINK_WriteReg(R5, 0x00000000)
TFA50 000:347.535 - 0.002ms returns 0
TFA50 000:347.539 JLINK_WriteReg(R6, 0x00000000)
TFA50 000:347.542 - 0.002ms returns 0
TFA50 000:347.545 JLINK_WriteReg(R7, 0x00000000)
TFA50 000:347.548 - 0.002ms returns 0
TFA50 000:347.551 JLINK_WriteReg(R8, 0x00000000)
TFA50 000:347.554 - 0.002ms returns 0
TFA50 000:347.557 JLINK_WriteReg(R9, 0x200003A0)
TFA50 000:347.560 - 0.002ms returns 0
TFA50 000:347.563 JLINK_WriteReg(R10, 0x00000000)
TFA50 000:347.566 - 0.002ms returns 0
TFA50 000:347.570 JLINK_WriteReg(R11, 0x00000000)
TFA50 000:347.572 - 0.002ms returns 0
TFA50 000:347.576 JLINK_WriteReg(R12, 0x00000000)
TFA50 000:347.579 - 0.002ms returns 0
TFA50 000:347.582 JLINK_WriteReg(R13 (SP), 0x20001000)
TFA50 000:347.585 - 0.003ms returns 0
TFA50 000:347.588 JLINK_WriteReg(R14, 0x20000001)
TFA50 000:347.591 - 0.002ms returns 0
TFA50 000:347.595 JLINK_WriteReg(R15 (PC), 0x200001D2)
TFA50 000:347.598 - 0.003ms returns 0
TFA50 000:347.601 JLINK_WriteReg(XPSR, 0x01000000)
TFA50 000:347.604 - 0.002ms returns 0
TFA50 000:347.607 JLINK_WriteReg(MSP, 0x20001000)
TFA50 000:347.610 - 0.002ms returns 0
TFA50 000:347.613 JLINK_WriteReg(PSP, 0x20001000)
TFA50 000:347.616 - 0.002ms returns 0
TFA50 000:347.619 JLINK_WriteReg(CFBP, 0x00000000)
TFA50 000:347.622 - 0.002ms returns 0
TFA50 000:347.626 JLINK_SetBPEx(Addr = 0x20000000, Type = 0xFFFFFFF2)
TFA50 000:347.629 - 0.003ms returns 0x0000000C
TFA50 000:347.633 JLINK_Go()
TFA50 000:347.639   CPU_ReadMem(4 bytes @ 0xE0001000)
TFA50 000:350.984 - 3.351ms
TFA50 000:350.992 JLINK_IsHalted()
TFA50 000:354.314   CPU_ReadMem(2 bytes @ 0x20000000)
TFA50 000:354.981 - 3.989ms returns TRUE
TFA50 000:354.987 JLINK_ReadReg(R15 (PC))
TFA50 000:354.991 - 0.004ms returns 0x20000000
TFA50 000:354.995 JLINK_ClrBPEx(BPHandle = 0x0000000C)
TFA50 000:354.998 - 0.003ms returns 0x00
TFA50 000:355.002 JLINK_ReadReg(R0)
TFA50 000:355.005 - 0.003ms returns 0x00000000
TFA50 000:411.089 JLINK_WriteMem(0x20000000, 0x3A8 Bytes, ...)
TFA50 000:411.101   Data:  00 BE 0A E0 0D 78 2D 06 68 40 08 24 40 00 00 D3 ...
TFA50 000:411.114   CPU_WriteMem(936 bytes @ 0x20000000)
TFA50 000:416.108 - 5.019ms returns 0x3A8
TFA50 000:416.150 JLINK_HasError()
TFA50 000:416.155 JLINK_WriteReg(R0, 0x08000000)
TFA50 000:416.161 - 0.005ms returns 0
TFA50 000:416.164 JLINK_WriteReg(R1, 0x00B71B00)
TFA50 000:416.167 - 0.003ms returns 0
TFA50 000:416.171 JLINK_WriteReg(R2, 0x00000002)
TFA50 000:416.174 - 0.002ms returns 0
TFA50 000:416.177 JLINK_WriteReg(R3, 0x00000000)
TFA50 000:416.180 - 0.002ms returns 0
TFA50 000:416.183 JLINK_WriteReg(R4, 0x00000000)
TFA50 000:416.186 - 0.003ms returns 0
TFA50 000:416.189 JLINK_WriteReg(R5, 0x00000000)
TFA50 000:416.192 - 0.002ms returns 0
TFA50 000:416.196 JLINK_WriteReg(R6, 0x00000000)
TFA50 000:416.198 - 0.002ms returns 0
TFA50 000:416.202 JLINK_WriteReg(R7, 0x00000000)
TFA50 000:416.205 - 0.002ms returns 0
TFA50 000:416.208 JLINK_WriteReg(R8, 0x00000000)
TFA50 000:416.211 - 0.003ms returns 0
TFA50 000:416.214 JLINK_WriteReg(R9, 0x200003A0)
TFA50 000:416.217 - 0.003ms returns 0
TFA50 000:416.220 JLINK_WriteReg(R10, 0x00000000)
TFA50 000:416.223 - 0.003ms returns 0
TFA50 000:416.227 JLINK_WriteReg(R11, 0x00000000)
TFA50 000:416.230 - 0.003ms returns 0
TFA50 000:416.233 JLINK_WriteReg(R12, 0x00000000)
TFA50 000:416.236 - 0.003ms returns 0
TFA50 000:416.239 JLINK_WriteReg(R13 (SP), 0x20001000)
TFA50 000:416.243 - 0.003ms returns 0
TFA50 000:416.246 JLINK_WriteReg(R14, 0x20000001)
TFA50 000:416.249 - 0.003ms returns 0
TFA50 000:416.253 JLINK_WriteReg(R15 (PC), 0x200000D2)
TFA50 000:416.256 - 0.003ms returns 0
TFA50 000:416.259 JLINK_WriteReg(XPSR, 0x01000000)
TFA50 000:416.262 - 0.003ms returns 0
TFA50 000:416.265 JLINK_WriteReg(MSP, 0x20001000)
TFA50 000:416.268 - 0.002ms returns 0
TFA50 000:416.271 JLINK_WriteReg(PSP, 0x20001000)
TFA50 000:416.274 - 0.002ms returns 0
TFA50 000:416.278 JLINK_WriteReg(CFBP, 0x00000000)
TFA50 000:416.280 - 0.002ms returns 0
TFA50 000:416.284 JLINK_SetBPEx(Addr = 0x20000000, Type = 0xFFFFFFF2)
TFA50 000:416.291   CPU_ReadMem(4 bytes @ 0x20000000)
TFA50 000:416.984   CPU_WriteMem(4 bytes @ 0x20000000)
TFA50 000:417.929   CPU_ReadMem(4 bytes @ 0x20000000)
TFA50 000:418.690   CPU_WriteMem(4 bytes @ 0x20000000)
TFA50 000:419.500   CPU_ReadMem(2 bytes @ 0x20000000)
TFA50 000:420.212 - 3.927ms returns 0x0000000D
TFA50 000:420.224 JLINK_Go()
TFA50 000:420.230   CPU_WriteMem(2 bytes @ 0x20000000)
TFA50 000:421.973   CPU_ReadMem(4 bytes @ 0xE0001000)
TFA50 000:426.108 - 5.883ms
TFA50 000:426.118 JLINK_IsHalted()
TFA50 000:429.058   CPU_ReadMem(2 bytes @ 0x20000000)
TFA50 000:429.579 - 3.461ms returns TRUE
TFA50 000:429.587 JLINK_ReadReg(R15 (PC))
TFA50 000:429.592 - 0.004ms returns 0x20000000
TFA50 000:429.595 JLINK_ClrBPEx(BPHandle = 0x0000000D)
TFA50 000:429.598 - 0.003ms returns 0x00
TFA50 000:429.602 JLINK_ReadReg(R0)
TFA50 000:429.605 - 0.003ms returns 0x00000000
TFA50 000:429.828 JLINK_WriteMem(0x200003A8, 0x58 Bytes, ...)
TFA50 000:429.833   Data:  C8 06 00 20 7D 02 00 08 CD 37 00 08 C9 37 00 08 ...
TFA50 000:429.842   CPU_WriteMem(88 bytes @ 0x200003A8)
TFA50 000:430.753 - 0.924ms returns 0x58
TFA50 000:430.759 JLINK_WriteMem(0x20000400, 0x28 Bytes, ...)
TFA50 000:430.762   Data:  8F 02 00 08 8F 02 00 08 00 00 00 00 8F 02 00 08 ...
TFA50 000:430.768   CPU_WriteMem(40 bytes @ 0x20000400)
TFA50 000:431.528 - 0.767ms returns 0x28
TFA50 000:431.548 JLINK_HasError()
TFA50 000:431.552 JLINK_WriteReg(R0, 0x08000000)
TFA50 000:431.555 - 0.004ms returns 0
TFA50 000:431.559 JLINK_WriteReg(R1, 0x00000080)
TFA50 000:431.564 - 0.005ms returns 0
TFA50 000:431.569 JLINK_WriteReg(R2, 0x200003A8)
TFA50 000:431.572 - 0.002ms returns 0
TFA50 000:431.575 JLINK_WriteReg(R3, 0x00000000)
TFA50 000:431.578 - 0.002ms returns 0
TFA50 000:431.581 JLINK_WriteReg(R4, 0x00000000)
TFA50 000:431.584 - 0.002ms returns 0
TFA50 000:431.587 JLINK_WriteReg(R5, 0x00000000)
TFA50 000:431.590 - 0.002ms returns 0
TFA50 000:431.594 JLINK_WriteReg(R6, 0x00000000)
TFA50 000:431.596 - 0.002ms returns 0
TFA50 000:431.600 JLINK_WriteReg(R7, 0x00000000)
TFA50 000:431.603 - 0.002ms returns 0
TFA50 000:431.606 JLINK_WriteReg(R8, 0x00000000)
TFA50 000:431.609 - 0.002ms returns 0
TFA50 000:431.612 JLINK_WriteReg(R9, 0x200003A0)
TFA50 000:431.615 - 0.002ms returns 0
TFA50 000:431.618 JLINK_WriteReg(R10, 0x00000000)
TFA50 000:431.621 - 0.002ms returns 0
TFA50 000:431.624 JLINK_WriteReg(R11, 0x00000000)
TFA50 000:431.627 - 0.002ms returns 0
TFA50 000:431.631 JLINK_WriteReg(R12, 0x00000000)
TFA50 000:431.634 - 0.002ms returns 0
TFA50 000:431.637 JLINK_WriteReg(R13 (SP), 0x20001000)
TFA50 000:431.640 - 0.003ms returns 0
TFA50 000:431.643 JLINK_WriteReg(R14, 0x20000001)
TFA50 000:431.646 - 0.003ms returns 0
TFA50 000:431.650 JLINK_WriteReg(R15 (PC), 0x200002D8)
TFA50 000:431.653 - 0.003ms returns 0
TFA50 000:431.656 JLINK_WriteReg(XPSR, 0x01000000)
TFA50 000:431.659 - 0.003ms returns 0
TFA50 000:431.662 JLINK_WriteReg(MSP, 0x20001000)
TFA50 000:431.665 - 0.002ms returns 0
TFA50 000:431.668 JLINK_WriteReg(PSP, 0x20001000)
TFA50 000:431.671 - 0.002ms returns 0
TFA50 000:431.675 JLINK_WriteReg(CFBP, 0x00000000)
TFA50 000:431.678 - 0.003ms returns 0
TFA50 000:431.681 JLINK_SetBPEx(Addr = 0x20000000, Type = 0xFFFFFFF2)
TFA50 000:431.685 - 0.003ms returns 0x0000000E
TFA50 000:431.688 JLINK_Go()
TFA50 000:431.694   CPU_ReadMem(4 bytes @ 0xE0001000)
TFA50 000:434.850 - 3.161ms
TFA50 000:434.857 JLINK_IsHalted()
TFA50 000:435.989 - 1.125ms returns FALSE
TFA50 000:435.999 JLINK_HasError()
TFA50 000:439.046 JLINK_IsHalted()
TFA50 000:441.900   CPU_ReadMem(2 bytes @ 0x20000000)
TFA50 000:442.421 - 3.378ms returns TRUE
TFA50 000:442.429 JLINK_ReadReg(R15 (PC))
TFA50 000:442.433 - 0.004ms returns 0x20000000
TFA50 000:442.437 JLINK_ClrBPEx(BPHandle = 0x0000000E)
TFA50 000:442.440 - 0.003ms returns 0x00
TFA50 000:442.444 JLINK_ReadReg(R0)
TFA50 000:442.447 - 0.003ms returns 0x00000000
TFA50 000:442.774 JLINK_WriteMem(0x200003A8, 0x58 Bytes, ...)
TFA50 000:442.780   Data:  8F 02 00 08 8F 02 00 08 00 00 00 00 8F 02 00 08 ...
TFA50 000:442.789   CPU_WriteMem(88 bytes @ 0x200003A8)
TFA50 000:443.749 - 0.974ms returns 0x58
TFA50 000:443.757 JLINK_WriteMem(0x20000400, 0x28 Bytes, ...)
TFA50 000:443.761   Data:  C2 F8 0F CC A2 46 AB 46 0C A7 30 CF 2D 1B 08 3F ...
TFA50 000:443.770   CPU_WriteMem(40 bytes @ 0x20000400)
TFA50 000:444.552 - 0.791ms returns 0x28
TFA50 000:444.583 JLINK_HasError()
TFA50 000:444.587 JLINK_WriteReg(R0, 0x08000080)
TFA50 000:444.591 - 0.004ms returns 0
TFA50 000:444.595 JLINK_WriteReg(R1, 0x00000080)
TFA50 000:444.597 - 0.003ms returns 0
TFA50 000:444.601 JLINK_WriteReg(R2, 0x200003A8)
TFA50 000:444.604 - 0.002ms returns 0
TFA50 000:444.607 JLINK_WriteReg(R3, 0x00000000)
TFA50 000:444.610 - 0.003ms returns 0
TFA50 000:444.613 JLINK_WriteReg(R4, 0x00000000)
TFA50 000:444.616 - 0.002ms returns 0
TFA50 000:444.619 JLINK_WriteReg(R5, 0x00000000)
TFA50 000:444.622 - 0.002ms returns 0
TFA50 000:444.626 JLINK_WriteReg(R6, 0x00000000)
TFA50 000:444.628 - 0.002ms returns 0
TFA50 000:444.632 JLINK_WriteReg(R7, 0x00000000)
TFA50 000:444.635 - 0.002ms returns 0
TFA50 000:444.638 JLINK_WriteReg(R8, 0x00000000)
TFA50 000:444.641 - 0.002ms returns 0
TFA50 000:444.644 JLINK_WriteReg(R9, 0x200003A0)
TFA50 000:444.647 - 0.003ms returns 0
TFA50 000:444.650 JLINK_WriteReg(R10, 0x00000000)
TFA50 000:444.653 - 0.003ms returns 0
TFA50 000:444.657 JLINK_WriteReg(R11, 0x00000000)
TFA50 000:444.660 - 0.002ms returns 0
TFA50 000:444.663 JLINK_WriteReg(R12, 0x00000000)
TFA50 000:444.666 - 0.002ms returns 0
TFA50 000:444.671 JLINK_WriteReg(R13 (SP), 0x20001000)
TFA50 000:444.674 - 0.004ms returns 0
TFA50 000:444.678 JLINK_WriteReg(R14, 0x20000001)
TFA50 000:444.681 - 0.003ms returns 0
TFA50 000:444.684 JLINK_WriteReg(R15 (PC), 0x200002D8)
TFA50 000:444.687 - 0.003ms returns 0
TFA50 000:444.690 JLINK_WriteReg(XPSR, 0x01000000)
TFA50 000:444.693 - 0.003ms returns 0
TFA50 000:444.697 JLINK_WriteReg(MSP, 0x20001000)
TFA50 000:444.700 - 0.002ms returns 0
TFA50 000:444.703 JLINK_WriteReg(PSP, 0x20001000)
TFA50 000:444.706 - 0.002ms returns 0
TFA50 000:444.709 JLINK_WriteReg(CFBP, 0x00000000)
TFA50 000:444.712 - 0.002ms returns 0
TFA50 000:444.716 JLINK_SetBPEx(Addr = 0x20000000, Type = 0xFFFFFFF2)
TFA50 000:444.719 - 0.003ms returns 0x0000000F
TFA50 000:444.723 JLINK_Go()
TFA50 000:444.728   CPU_ReadMem(4 bytes @ 0xE0001000)
TFA50 000:447.918 - 3.195ms
TFA50 000:447.925 JLINK_IsHalted()
TFA50 000:449.114 - 1.187ms returns FALSE
TFA50 000:449.167 JLINK_HasError()
TFA50 000:450.617 JLINK_IsHalted()
TFA50 000:453.469   CPU_ReadMem(2 bytes @ 0x20000000)
TFA50 000:454.043 - 3.426ms returns TRUE
TFA50 000:454.048 JLINK_ReadReg(R15 (PC))
TFA50 000:454.052 - 0.004ms returns 0x20000000
TFA50 000:454.056 JLINK_ClrBPEx(BPHandle = 0x0000000F)
TFA50 000:454.059 - 0.003ms returns 0x00
TFA50 000:454.063 JLINK_ReadReg(R0)
TFA50 000:454.066 - 0.002ms returns 0x00000000
TFA50 000:454.332 JLINK_WriteMem(0x200003A8, 0x58 Bytes, ...)
TFA50 000:454.338   Data:  01 26 33 42 00 D0 FB 1A 33 43 98 47 54 46 5D 46 ...
TFA50 000:454.354   CPU_WriteMem(88 bytes @ 0x200003A8)
TFA50 000:455.387 - 1.054ms returns 0x58
TFA50 000:455.392 JLINK_WriteMem(0x20000400, 0x28 Bytes, ...)
TFA50 000:455.395   Data:  10 B5 6E 29 02 D1 00 F0 31 FA 10 BD 70 29 02 D1 ...
TFA50 000:455.401   CPU_WriteMem(40 bytes @ 0x20000400)
TFA50 000:456.117 - 0.725ms returns 0x28
TFA50 000:456.122 JLINK_HasError()
